
**** 03/27/25 21:34:17 *********** Evaluation PSpice (Nov 1999) **************

 * D:\_Study\CSE\CSE-209\Experiment4\Figure5\Schematic2.sch


 ****     CIRCUIT DESCRIPTION


******************************************************************************




* Schematics Version 9.1 - Web Update 1
* Thu Mar 27 21:34:17 2025



** Analysis setup **
.OP 


* From [PSPICE NETLIST] section of pspiceev.ini:
.lib "nom.lib"

.INC "Schematic2.net"

**** INCLUDING Schematic2.net ****
* Schematics Netlist *



V_V1         1 0 10V
R_R1         1 2  8  
R_R5         0 4  8  
G_G1         3 2 a 0 1
R_R3         0 a  4  
R_R2         a 2  16  
R_R4         3 4  20  

**** RESUMING Schematic2.cir ****
.INC "Schematic2.als"



**** INCLUDING Schematic2.als ****
* Schematics Aliases *

.ALIASES
V_V1            V1(+=1 -=0 )
R_R1            R1(1=1 2=2 )
R_R5            R5(1=0 2=4 )
G_G1            G1(3=3 4=2 1=a 2=0 )
R_R3            R3(1=0 2=a )
R_R2            R2(1=a 2=2 )
R_R4            R4(1=3 2=4 )
_    _(1=1)
_    _(2=2)
_    _(4=4)
_    _(b=0)
_    _(3=3)
_    _(a=a)
.ENDALIASES


**** RESUMING Schematic2.cir ****
.probe


.END

**** 03/27/25 21:34:17 *********** Evaluation PSpice (Nov 1999) **************

 * D:\_Study\CSE\CSE-209\Experiment4\Figure5\Schematic2.sch


 ****     SMALL SIGNAL BIAS SOLUTION       TEMPERATURE =   27.000 DEG C


******************************************************************************



 NODE   VOLTAGE     NODE   VOLTAGE     NODE   VOLTAGE     NODE   VOLTAGE


(    1)   10.0000  (    2)  -50.0000  (    3)  280.0000  (    4)   80.0000      

(    a)  -10.0000  




    VOLTAGE SOURCE CURRENTS
    NAME         CURRENT

    V_V1        -7.500E+00

    TOTAL POWER DISSIPATION   7.50E+01  WATTS


**** 03/27/25 21:34:17 *********** Evaluation PSpice (Nov 1999) **************

 * D:\_Study\CSE\CSE-209\Experiment4\Figure5\Schematic2.sch


 ****     OPERATING POINT INFORMATION      TEMPERATURE =   27.000 DEG C


******************************************************************************






**** VOLTAGE-CONTROLLED CURRENT SOURCES


NAME         G_G1      
I-SOURCE    -1.000E+01

          JOB CONCLUDED

          TOTAL JOB TIME            0.00
