
**** 03/27/25 21:58:39 *********** Evaluation PSpice (Nov 1999) **************

 * D:\_Study\CSE\CSE-209\Experiment4\Figure9\Schematic4.sch


 ****     CIRCUIT DESCRIPTION


******************************************************************************




* Schematics Version 9.1 - Web Update 1
* Thu Mar 27 21:58:35 2025



** Analysis setup **
.OP 


* From [PSPICE NETLIST] section of pspiceev.ini:
.lib "nom.lib"

.INC "Schematic4.net"

**** INCLUDING Schematic4.net ****
* Schematics Netlist *



R_R1         1 a  8  
R_R2         5 b  16  
R_R3         0 5  4  
R_R4         3 4  20  
F_F1         3 a VF_F1 0.5
VF_F1        a b 0V
R_R5         0 4  8  
V_V1         1 0 10V

**** RESUMING Schematic4.cir ****
.INC "Schematic4.als"



**** INCLUDING Schematic4.als ****
* Schematics Aliases *

.ALIASES
R_R1            R1(1=1 2=a )
R_R2            R2(1=5 2=b )
R_R3            R3(1=0 2=5 )
R_R4            R4(1=3 2=4 )
F_F1            F1(3=3 4=a )
VF_F1           F1(1=a 2=b )
R_R5            R5(1=0 2=4 )
V_V1            V1(+=1 -=0 )
_    _(1=1)
_    _(5=5)
_    _(4=4)
_    _(3=3)
_    _(a=a)
_    _(2=a)
_    _(b=b)
.ENDALIASES


**** RESUMING Schematic4.cir ****
.probe


.END

**** 03/27/25 21:58:39 *********** Evaluation PSpice (Nov 1999) **************

 * D:\_Study\CSE\CSE-209\Experiment4\Figure9\Schematic4.sch


 ****     SMALL SIGNAL BIAS SOLUTION       TEMPERATURE =   27.000 DEG C


******************************************************************************



 NODE   VOLTAGE     NODE   VOLTAGE     NODE   VOLTAGE     NODE   VOLTAGE


(    1)   10.0000  (    3)   -5.8333  (    4)   -1.6667  (    5)    1.6667      

(    a)    8.3333  (    b)    8.3333  




    VOLTAGE SOURCE CURRENTS
    NAME         CURRENT

    VF_F1        4.167E-01
    V_V1        -2.083E-01

    TOTAL POWER DISSIPATION   2.08E+00  WATTS


**** 03/27/25 21:58:39 *********** Evaluation PSpice (Nov 1999) **************

 * D:\_Study\CSE\CSE-209\Experiment4\Figure9\Schematic4.sch


 ****     OPERATING POINT INFORMATION      TEMPERATURE =   27.000 DEG C


******************************************************************************






**** CURRENT-CONTROLLED CURRENT SOURCES


NAME         F_F1      
I-SOURCE     2.083E-01

          JOB CONCLUDED

          TOTAL JOB TIME            0.00
