
**** 03/27/25 21:08:45 *********** Evaluation PSpice (Nov 1999) **************

 * D:\_Study\CSE\CSE-209\Experiment4\Schematic1.sch


 ****     CIRCUIT DESCRIPTION


******************************************************************************




* Schematics Version 9.1 - Web Update 1
* Thu Mar 27 21:08:44 2025



** Analysis setup **
.OP 


* From [PSPICE NETLIST] section of pspiceev.ini:
.lib "nom.lib"

.INC "Schematic1.net"

**** INCLUDING Schematic1.net ****
* Schematics Netlist *



G_G1         5 2 b 0 0.5
R_R5         0 b  8  
V_V2         x 0 10V
R_R3         0 6  4  
R_R2         6 5  16  
R_R1         y 2  8  
R_R4         3 b  20  
H_H1         2 3 VH_H1 0.5
VH_H1        x y 0V

**** RESUMING Schematic1.cir ****
.INC "Schematic1.als"



**** INCLUDING Schematic1.als ****
* Schematics Aliases *

.ALIASES
G_G1            G1(3=5 4=2 1=b 2=0 )
R_R5            R5(1=0 2=b )
V_V2            V2(+=x -=0 )
R_R3            R3(1=0 2=6 )
R_R2            R2(1=6 2=5 )
R_R1            R1(1=y 2=2 )
R_R4            R4(1=3 2=b )
H_H1            H1(3=2 4=3 )
VH_H1           H1(1=x 2=y )
_    _(5=5)
_    _(2=2)
_    _(b=b)
_    _(4=b)
_    _(a=0)
_    _(6=6)
_    _(3=3)
_    _(x=x)
_    _(1=x)
_    _(y=y)
.ENDALIASES


**** RESUMING Schematic1.cir ****
.probe


.END

**** 03/27/25 21:08:45 *********** Evaluation PSpice (Nov 1999) **************

 * D:\_Study\CSE\CSE-209\Experiment4\Schematic1.sch


 ****     SMALL SIGNAL BIAS SOLUTION       TEMPERATURE =   27.000 DEG C


******************************************************************************



 NODE   VOLTAGE     NODE   VOLTAGE     NODE   VOLTAGE     NODE   VOLTAGE


(    2)  106.0000  (    3)  112.0000  (    5) -320.0000  (    6)  -64.0000      

(    b)   32.0000  (    x)   10.0000  (    y)   10.0000  




    VOLTAGE SOURCE CURRENTS
    NAME         CURRENT

    V_V2         1.200E+01
    VH_H1       -1.200E+01

    TOTAL POWER DISSIPATION  -1.20E+02  WATTS


**** 03/27/25 21:08:45 *********** Evaluation PSpice (Nov 1999) **************

 * D:\_Study\CSE\CSE-209\Experiment4\Schematic1.sch


 ****     OPERATING POINT INFORMATION      TEMPERATURE =   27.000 DEG C


******************************************************************************






**** VOLTAGE-CONTROLLED CURRENT SOURCES


NAME         G_G1      
I-SOURCE     1.600E+01


**** CURRENT-CONTROLLED VOLTAGE SOURCES


NAME         H_H1      
V-SOURCE    -6.000E+00
I-SOURCE     4.000E+00

          JOB CONCLUDED

          TOTAL JOB TIME             .02
