
**** 03/27/25 21:48:43 *********** Evaluation PSpice (Nov 1999) **************

 * D:\_Study\CSE\CSE-209\Experiment4\Figure7\Schematic3.sch


 ****     CIRCUIT DESCRIPTION


******************************************************************************




* Schematics Version 9.1 - Web Update 1
* Thu Mar 27 21:48:42 2025



** Analysis setup **
.OP 


* From [PSPICE NETLIST] section of pspiceev.ini:
.lib "nom.lib"

.INC "Schematic3.net"

**** INCLUDING Schematic3.net ****
* Schematics Netlist *



V_V1         1 0 10V
R_R5         0 4  8  
R_R1         1 a  1k  
R_R2         5 b  16  
R_R3         0 5  4  
R_R4         3 4  20  
H_H1         a 3 VH_H1 0.5
VH_H1        a b 0V

**** RESUMING Schematic3.cir ****
.INC "Schematic3.als"



**** INCLUDING Schematic3.als ****
* Schematics Aliases *

.ALIASES
V_V1            V1(+=1 -=0 )
R_R5            R5(1=0 2=4 )
R_R1            R1(1=1 2=a )
R_R2            R2(1=5 2=b )
R_R3            R3(1=0 2=5 )
R_R4            R4(1=3 2=4 )
H_H1            H1(3=a 4=3 )
VH_H1           H1(1=a 2=b )
_    _(1=1)
_    _(4=4)
_    _(5=5)
_    _(3=3)
_    _(a=a)
_    _(2=a)
_    _(b=b)
.ENDALIASES


**** RESUMING Schematic3.cir ****
.probe


.END

**** 03/27/25 21:48:43 *********** Evaluation PSpice (Nov 1999) **************

 * D:\_Study\CSE\CSE-209\Experiment4\Figure7\Schematic3.sch


 ****     SMALL SIGNAL BIAS SOLUTION       TEMPERATURE =   27.000 DEG C


******************************************************************************



 NODE   VOLTAGE     NODE   VOLTAGE     NODE   VOLTAGE     NODE   VOLTAGE


(    1)   10.0000  (    3)     .1136  (    4)     .0325  (    5)     .0233      

(    a)     .1165  (    b)     .1165  




    VOLTAGE SOURCE CURRENTS
    NAME         CURRENT

    V_V1        -9.883E-03
    VH_H1        5.826E-03

    TOTAL POWER DISSIPATION   9.88E-02  WATTS


**** 03/27/25 21:48:43 *********** Evaluation PSpice (Nov 1999) **************

 * D:\_Study\CSE\CSE-209\Experiment4\Figure7\Schematic3.sch


 ****     OPERATING POINT INFORMATION      TEMPERATURE =   27.000 DEG C


******************************************************************************






**** CURRENT-CONTROLLED VOLTAGE SOURCES


NAME         H_H1      
V-SOURCE     2.913E-03
I-SOURCE     4.057E-03

          JOB CONCLUDED

          TOTAL JOB TIME             .02
