
**** 03/27/25 21:37:28 *********** Evaluation PSpice (Nov 1999) **************

 * D:\_Study\CSE\CSE-209\Experiment4\Figure2\Schematic1.sch


 ****     CIRCUIT DESCRIPTION


******************************************************************************




* Schematics Version 9.1 - Web Update 1
* Thu Mar 27 21:37:28 2025



** Analysis setup **
.OP 


* From [PSPICE NETLIST] section of pspiceev.ini:
.lib "nom.lib"

.INC "Schematic1.net"

**** INCLUDING Schematic1.net ****
* Schematics Netlist *



R_R2         a 2  16  
V_V1         1 0 10V
E_E1         2 3 a 0 0.5
R_R1         1 2  8  
R_R5         0 4  1k  
R_R3         0 a  4  
R_R4         3 4  20  

**** RESUMING Schematic1.cir ****
.INC "Schematic1.als"



**** INCLUDING Schematic1.als ****
* Schematics Aliases *

.ALIASES
R_R2            R2(1=a 2=2 )
V_V1            V1(+=1 -=0 )
E_E1            E1(3=2 4=3 1=a 2=0 )
R_R1            R1(1=1 2=2 )
R_R5            R5(1=0 2=4 )
R_R3            R3(1=0 2=a )
R_R4            R4(1=3 2=4 )
_    _(2=2)
_    _(1=1)
_    _(a=a)
_    _(b=0)
_    _(3=3)
_    _(4=4)
.ENDALIASES


**** RESUMING Schematic1.cir ****
.probe


.END

**** 03/27/25 21:37:28 *********** Evaluation PSpice (Nov 1999) **************

 * D:\_Study\CSE\CSE-209\Experiment4\Figure2\Schematic1.sch


 ****     SMALL SIGNAL BIAS SOLUTION       TEMPERATURE =   27.000 DEG C


******************************************************************************



 NODE   VOLTAGE     NODE   VOLTAGE     NODE   VOLTAGE     NODE   VOLTAGE


(    1)   10.0000  (    2)    7.1070  (    3)    6.3963  (    4)    6.2709      

(    a)    1.4214  




    VOLTAGE SOURCE CURRENTS
    NAME         CURRENT

    V_V1        -3.616E-01

    TOTAL POWER DISSIPATION   3.62E+00  WATTS


**** 03/27/25 21:37:28 *********** Evaluation PSpice (Nov 1999) **************

 * D:\_Study\CSE\CSE-209\Experiment4\Figure2\Schematic1.sch


 ****     OPERATING POINT INFORMATION      TEMPERATURE =   27.000 DEG C


******************************************************************************






**** VOLTAGE-CONTROLLED VOLTAGE SOURCES


NAME         E_E1      
V-SOURCE     7.107E-01
I-SOURCE     6.271E-03

          JOB CONCLUDED

          TOTAL JOB TIME             .02
